T1D7C 11892:670 SEGGER J-Link V6.30h Log File (0000ms, 259928ms total)
T1D7C 11892:670 DLL Compiled: Mar 16 2018 18:02:51 (0000ms, 259928ms total)
T1D7C 11892:670 Logging started @ 2018-05-30 02:25 (0000ms, 259928ms total)
T1D7C 11892:670 JLINK_SetWarnOutHandler(...) (0000ms, 259928ms total)
T1D7C 11892:670 JLINK_OpenEx(...)
Firmware: J-Link V9 compiled Apr 20 2018 16:47:26
Hardware: V9.40
S/N: 59425868
Feature(s): RDI, GDB, FlashDL, FlashBP, JFlash, RDDI
TELNET listener socket opened on port 19021Device "CORTEX-M7" selected.WEBSRV 
Starting webserver (0086ms, 260014ms total)
T1D7C 11892:670 WEBSRV Webserver running on local port 19080 (0086ms, 260014ms total)
T1D7C 11892:670   returns O.K. (0086ms, 260014ms total)
T1D7C 11892:756 JLINK_GetEmuCaps()  returns 0xB9FF7BBF (0000ms, 260014ms total)
T1D7C 11892:757 JLINK_TIF_GetAvailable(...) (0000ms, 260014ms total)
T1D7C 11892:757 JLINK_SetErrorOutHandler(...) (0000ms, 260014ms total)
T1D7C 11892:757 JLINK_ExecCommand("ProjectFile = "E:\RT1050\SDK_2.3.0_EasyARM-RT1052 Rev C&D\boards\EasyARM_RT1052 Rev C&D\awtk_examples\awtk_xip\mdk\JLinkSettings.ini"", ...). Device "CORTEX-M7" selected.  returns 0x00 (0001ms, 260015ms total)
T1D7C 11892:758 JLINK_ExecCommand("Device = MIMXRT1052:M7", ...). Device "CORTEX-M7" selected.  returns 0x00 (0000ms, 260015ms total)
T1D7C 11892:758 JLINK_ExecCommand("DisableConnectionTimeout", ...).   returns 0x01 (0000ms, 260015ms total)
T1D7C 11892:758 JLINK_GetHardwareVersion()  returns 0x16F30 (0000ms, 260015ms total)
T1D7C 11892:758 JLINK_GetDLLVersion()  returns 63008 (0000ms, 260015ms total)
T1D7C 11892:758 JLINK_GetFirmwareString(...) (0000ms, 260015ms total)
T1D7C 11892:758 JLINK_GetDLLVersion()  returns 63008 (0000ms, 260015ms total)
T1D7C 11892:758 JLINK_GetCompileDateTime() (0000ms, 260015ms total)
T1D7C 11892:758 JLINK_GetFirmwareString(...) (0000ms, 260015ms total)
T1D7C 11892:759 JLINK_GetHardwareVersion()  returns 0x16F30 (0000ms, 260015ms total)
T1D7C 11892:759 JLINK_TIF_Select(JLINKARM_TIF_SWD)  returns 0x00 (0000ms, 260015ms total)
T1D7C 11892:759 JLINK_SetSpeed(5000) (0000ms, 260015ms total)
T1D7C 11892:759 JLINK_GetId() >0x10B TIF>Found SW-DP with ID 0x0BD11477 >0x0D TIF> >0x28 TIF> >0x0D TIF> >0x28 TIF> >0x0D TIF> >0x28 TIF> >0x0D TIF> >0x28 TIF> >0x0D TIF> >0x21 TIF> >0x0D TIF> >0x28 TIF>Scanning AP map to find all available APs >0x0D TIF> >0x28 TIF> >0x0D TIF> >0x21 TIF> >0x0D TIF> >0x21 TIF> >0x0D TIF> >0x28 TIF> >0x0D TIF> >0x21 TIF> >0x0D TIF> >0x21 TIF>AP[1]: Stopped AP scan as end of AP map has been reachedAP[0]: AHB-AP (IDR: 0x04770041)Iterating through AP map to find AHB-AP to use
 >0x42 TIF> >0x28 TIF> >0x0D TIF> >0x28 TIF> >0x0D TIF> >0x21 TIF> >0x0D TIF> >0x21 TIF> >0x42 TIF> >0x28 TIF> >0x0D TIF> >0x28 TIF> >0x0D TIF> >0x28 TIF> >0x0D TIF> >0x21 TIF> >0x0D TIF> >0x21 TIF>AP[0]: Core foundAP[0]: AHB-AP ROM base: 0xE00FD000 >0x0D TIF> >0x28 TIF> >0x0D TIF> >0x28 TIF> >0x0D TIF> >0x28 TIF> >0x0D TIF> >0x21 TIF> >0x0D TIF> >0x21 TIF>CPUID register: 0x411FC271. Implementer code: 0x41 (ARM)Found Cortex-M7 r1p1, Little endian. -- CPU_ReadMem(4 bytes @ 0xE000EDF0)
 -- CPU_WriteMem(4 bytes @ 0xE000EDF0) -- CPU_ReadMem(4 bytes @ 0xE0002000)FPUnit: 8 code (BP) slots and 0 literal slots -- CPU_ReadMem(4 bytes @ 0xE000EDFC) -- CPU_WriteMem(4 bytes @ 0xE000EDFC) -- CPU_ReadMem(4 bytes @ 0xE0001000) -- CPU_WriteMem(4 bytes @ 0xE0001000) -- CPU_ReadMem(4 bytes @ 0xE000ED88) -- CPU_WriteMem(4 bytes @ 0xE000ED88) -- CPU_ReadMem(4 bytes @ 0xE000ED88) -- CPU_WriteMem(4 bytes @ 0xE000ED88)CoreSight components:ROMTbl[0] @ E00FD000 -- CPU_ReadMem(16 bytes @ 0xE00FD000)
 -- CPU_ReadMem(16 bytes @ 0xE00FEFF0) -- CPU_ReadMem(16 bytes @ 0xE00FEFE0)ROMTbl[0][0]: E00FE000, CID: B105100D, PID: 000BB4C8 ROM TableROMTbl[1] @ E00FE000 -- CPU_ReadMem(16 bytes @ 0xE00FE000) -- CPU_ReadMem(16 bytes @ 0xE00FFFF0) -- CPU_ReadMem(16 bytes @ 0xE00FFFE0)ROMTbl[1][0]: E00FF000, CID: B105100D, PID: 000BB4C7 ROM TableROMTbl[2] @ E00FF000 -- CPU_ReadMem(16 bytes @ 0xE00FF000) -- CPU_ReadMem(16 bytes @ 0xE000EFF0) -- CPU_ReadMem(16 bytes @ 0xE000EFE0)
ROMTbl[2][0]: E000E000, CID: B105E00D, PID: 000BB00C SCS-M7 -- CPU_ReadMem(16 bytes @ 0xE0001FF0) -- CPU_ReadMem(16 bytes @ 0xE0001FE0)ROMTbl[2][1]: E0001000, CID: B105E00D, PID: 000BB002 DWT -- CPU_ReadMem(16 bytes @ 0xE0002FF0) -- CPU_ReadMem(16 bytes @ 0xE0002FE0)ROMTbl[2][2]: E0002000, CID: B105E00D, PID: 000BB00E FPB-M7 -- CPU_ReadMem(16 bytes @ 0xE0000FF0) -- CPU_ReadMem(16 bytes @ 0xE0000FE0)ROMTbl[2][3]: E0000000, CID: B105E00D, PID: 000BB001 ITM -- CPU_ReadMem(16 bytes @ 0xE00FF010)
 -- CPU_ReadMem(16 bytes @ 0xE0041FF0) -- CPU_ReadMem(16 bytes @ 0xE0041FE0)ROMTbl[1][1]: E0041000, CID: B105900D, PID: 001BB975 ETM-M7 -- CPU_ReadMem(16 bytes @ 0xE0042FF0) -- CPU_ReadMem(16 bytes @ 0xE0042FE0)ROMTbl[1][2]: E0042000, CID: B105900D, PID: 004BB906 CTI -- CPU_ReadMem(16 bytes @ 0xE00FE010) -- CPU_ReadMem(16 bytes @ 0xE0040FF0) -- CPU_ReadMem(16 bytes @ 0xE0040FE0)ROMTbl[0][1]: E0040000, CID: B105900D, PID: 000BB9A9 TPIU-M7 -- CPU_ReadMem(16 bytes @ 0xE0043FF0)
 -- CPU_ReadMem(16 bytes @ 0xE0043FE0)ROMTbl[0][2]: E0043000, CID: B105F00D, PID: 001BB101 TSG -- CPU_ReadMem(16 bytes @ 0xE00FD010) -- CPU_ReadMem(4 bytes @ 0xE000ED78)Cache: Separate I- and D-cache. (0119ms, 260134ms total)
T1D7C 11892:759  -- CPU_WriteMem(4 bytes @ 0xE000ED84) -- CPU_ReadMem(4 bytes @ 0xE000ED80)I-Cache L1: 32 KB, 512 Sets, 32 Bytes/Line, 2-Way -- CPU_WriteMem(4 bytes @ 0xE000ED84) -- CPU_ReadMem(4 bytes @ 0xE000ED80)D-Cache L1: 32 KB, 256 Sets, 32 Bytes/Line, 4-Way >0x0D TIF> >0x21 TIF>  returns 0x0BD11477 (0120ms, 260135ms total)
T1D7C 11892:879 JLINK_GetDLLVersion()  returns 63008 (0000ms, 260135ms total)
T1D7C 11892:879 JLINK_CORE_GetFound()  returns 0xE0100FF (0000ms, 260135ms total)
T1D7C 11892:879 JLINK_GetDebugInfo(0x100 = JLINKARM_ROM_TABLE_ADDR_INDEX) -- Value=0xE00FD000  returns 0x00 (0000ms, 260135ms total)
T1D7C 11892:879 JLINK_GetDebugInfo(0x100 = JLINKARM_ROM_TABLE_ADDR_INDEX) -- Value=0xE00FD000  returns 0x00 (0000ms, 260135ms total)
T1D7C 11892:879 JLINK_GetDebugInfo(0x101 = JLINKARM_DEBUG_INFO_ETM_ADDR_INDEX) -- Value=0xE0041000  returns 0x00 (0000ms, 260135ms total)
T1D7C 11892:879 JLINK_ReadMemEx(0xE0041FD0, 0x0020 Bytes, ..., Flags = 0x02000004) -- CPU_ReadMem(32 bytes @ 0xE0041FD0) - Data: 04 00 00 00 00 00 00 00 00 00 00 00 00 00 00 00 ...  returns 0x20 (0001ms, 260136ms total)
T1D7C 11892:880 JLINK_GetDebugInfo(0x102 = JLINKARM_DEBUG_INFO_MTB_ADDR_INDEX) -- Value=0x00000000  returns 0x00 (0000ms, 260136ms total)
T1D7C 11892:880 JLINK_GetDebugInfo(0x103 = JLINKARM_DEBUG_INFO_TPIU_ADDR_INDEX) -- Value=0xE0040000  returns 0x00 (0000ms, 260136ms total)
T1D7C 11892:880 JLINK_GetDebugInfo(0x104 = JLINKARM_DEBUG_INFO_ITM_ADDR_INDEX) -- Value=0xE0000000  returns 0x00 (0000ms, 260136ms total)
T1D7C 11892:880 JLINK_GetDebugInfo(0x105 = JLINKARM_DEBUG_INFO_DWT_ADDR_INDEX) -- Value=0xE0001000  returns 0x00 (0000ms, 260136ms total)
T1D7C 11892:880 JLINK_GetDebugInfo(0x106 = JLINKARM_DEBUG_INFO_FPB_ADDR_INDEX) -- Value=0xE0002000  returns 0x00 (0000ms, 260136ms total)
T1D7C 11892:880 JLINK_GetDebugInfo(0x107 = JLINKARM_DEBUG_INFO_NVIC_ADDR_INDEX) -- Value=0xE000E000  returns 0x00 (0000ms, 260136ms total)
T1D7C 11892:880 JLINK_GetDebugInfo(0x10C = JLINKARM_DEBUG_INFO_DBG_ADDR_INDEX) -- Value=0xE000EDF0  returns 0x00 (0000ms, 260136ms total)
T1D7C 11892:880 JLINK_GetDebugInfo(0x01 = Unknown) -- Value=0x00000001  returns 0x00 (0000ms, 260136ms total)
T1D7C 11892:880 JLINK_ReadMemU32(0xE000ED00, 0x0001 Items, ...) -- CPU_ReadMem(4 bytes @ 0xE000ED00) - Data: 71 C2 1F 41  returns 0x01 (0000ms, 260136ms total)
T1D7C 11892:880 JLINK_GetDebugInfo(0x10F = JLINKARM_DEBUG_INFO_HAS_CORTEX_M_SECURITY_EXT_INDEX) -- Value=0x00000000  returns 0x00 (0000ms, 260136ms total)
T1D7C 11892:880 JLINK_SetResetType(JLINKARM_CM3_RESET_TYPE_NORMAL)  returns JLINKARM_CM3_RESET_TYPE_NORMAL (0000ms, 260136ms total)
T1D7C 11892:880 JLINK_Reset() -- CPU is running -- CPU_WriteMem(4 bytes @ 0xE000EDF0) -- CPU is running -- CPU_WriteMem(4 bytes @ 0xE000EDFC)Reset: Halt core after reset via DEMCR.VC_CORERESET. >0x35 TIF>Reset: Reset device via AIRCR.SYSRESETREQ. -- CPU is running -- CPU_WriteMem(4 bytes @ 0xE000ED0C) >0x0D TIF> >0x28 TIF> -- CPU_ReadMem(4 bytes @ 0xE000EDF0) -- CPU_ReadMem(4 bytes @ 0xE000EDF0) -- CPU is running -- CPU_WriteMem(4 bytes @ 0xE000EDF0) -- CPU is running
 -- CPU_WriteMem(4 bytes @ 0xE000EDFC) -- CPU_ReadMem(4 bytes @ 0xE000EDF0) -- CPU_WriteMem(4 bytes @ 0xE0002000) -- CPU_ReadMem(4 bytes @ 0xE000EDFC) -- CPU_ReadMem(4 bytes @ 0xE0001000) (0063ms, 260199ms total)
T1D7C 11892:943 JLINK_ReadReg(R15 (PC))  returns 0x0020C788 (0000ms, 260199ms total)
T1D7C 11892:943 JLINK_ReadReg(XPSR)  returns 0x01000000 (0000ms, 260199ms total)
T1D7C 11892:943 JLINK_Halt()  returns 0x00 (0000ms, 260199ms total)
T1D7C 11892:943 JLINK_ReadMemU32(0xE000EDF0, 0x0001 Items, ...) -- CPU_ReadMem(4 bytes @ 0xE000EDF0) - Data: 03 00 03 00  returns 0x01 (0001ms, 260200ms total)
T1D7C 11892:944 JLINK_WriteU32(0xE000EDF0, 0xA05F0003) -- CPU_WriteMem(4 bytes @ 0xE000EDF0)  returns 0x00 (0000ms, 260200ms total)
T1D7C 11892:944 JLINK_WriteU32(0xE000EDFC, 0x01000000) -- CPU_WriteMem(4 bytes @ 0xE000EDFC)  returns 0x00 (0000ms, 260200ms total)
T1D7C 11892:944 JLINK_GetHWStatus(...)  returns 0x00 (0000ms, 260200ms total)
T1D7C 11892:944 JLINK_GetNumBPUnits(Type = 0xFFFFFF00)  returns 0x08 (0000ms, 260200ms total)
T1D7C 11892:944 JLINK_GetNumBPUnits(Type = 0xF0)  returns 0x2000 (0000ms, 260200ms total)
T1D7C 11892:944 JLINK_GetNumWPUnits()  returns 0x04 (0000ms, 260200ms total)
T1D7C 11892:944 JLINK_GetSpeed()  returns 0xFA0 (0000ms, 260200ms total)
T1D7C 11892:944 JLINK_ReadMemU32(0xE000E004, 0x0001 Items, ...) -- CPU_ReadMem(4 bytes @ 0xE000E004) - Data: 04 00 00 00  returns 0x01 (0001ms, 260201ms total)
T1D7C 11892:945 JLINK_ReadMemU32(0xE000E004, 0x0001 Items, ...) -- CPU_ReadMem(4 bytes @ 0xE000E004) - Data: 04 00 00 00  returns 0x01 (0000ms, 260201ms total)
T1D7C 11892:945 JLINK_WriteMemEx(0xE0001000, 0x001C Bytes, ..., Flags = 0x02000004) - Data: 01 00 00 00 00 00 00 00 00 00 00 00 00 00 00 00 ... -- CPU_WriteMem(28 bytes @ 0xE0001000)  returns 0x1C (0001ms, 260202ms total)
T1D7C 11892:946 JLINK_ReadReg(R15 (PC))  returns 0x0020C788 (0000ms, 260202ms total)
T1D7C 11892:946 JLINK_ReadReg(XPSR)  returns 0x01000000 (0000ms, 260202ms total)
T1D7C 11893:887 JLINK_SetResetType(JLINKARM_CM3_RESET_TYPE_NORMAL)  returns JLINKARM_CM3_RESET_TYPE_NORMAL (0000ms, 260202ms total)
T1D7C 11893:887 JLINK_Reset() -- CPU_WriteMem(4 bytes @ 0xE000EDF0) -- CPU_WriteMem(4 bytes @ 0xE000EDFC)Reset: Halt core after reset via DEMCR.VC_CORERESET. >0x35 TIF>Reset: Reset device via AIRCR.SYSRESETREQ. -- CPU_WriteMem(4 bytes @ 0xE000ED0C) >0x0D TIF> >0x28 TIF> -- CPU_ReadMem(4 bytes @ 0xE000EDF0) -- CPU_ReadMem(4 bytes @ 0xE000EDF0) -- CPU_WriteMem(4 bytes @ 0xE000EDF0) -- CPU_WriteMem(4 bytes @ 0xE000EDFC) -- CPU_ReadMem(4 bytes @ 0xE000EDF0) -- CPU_WriteMem(4 bytes @ 0xE0002000)
 -- CPU_ReadMem(4 bytes @ 0xE000EDFC) -- CPU_ReadMem(4 bytes @ 0xE0001000) (0062ms, 260264ms total)
T1D7C 11893:955 JLINK_ReadReg(R15 (PC))  returns 0x0020C788 (0000ms, 260264ms total)
T1D7C 11893:955 JLINK_ReadReg(XPSR)  returns 0x01000000 (0000ms, 260264ms total)
T1D7C 11893:955 JLINK_ReadMemEx(0x0020C788, 0x003C Bytes, ..., Flags = 0x02000000) -- CPU_ReadMem(60 bytes @ 0x0020C788) - Data: 72 B6 01 60 0B 49 08 68 40 F0 10 00 08 60 0A 48 ...  returns 0x3C (0000ms, 260264ms total)
T1D7C 11894:873 JLINK_ReadMemEx(0x6000D06A, 0x0002 Bytes, ..., Flags = 0x02000000) -- CPU_ReadMem(2 bytes @ 0x6000D06A) - Data: 42 42  returns 0x02 (0000ms, 260264ms total)
T1D7C 11894:873 JLINK_ReadMemEx(0x6000D06C, 0x003C Bytes, ..., Flags = 0x02000000) -- CPU_ReadMem(60 bytes @ 0x6000D06C) - Data: 00 00 00 00 42 42 42 42 00 00 00 00 42 42 42 42 ...  returns 0x3C (0001ms, 260265ms total)
T1D7C 11894:991 JLINK_ReadReg(R0)  returns 0x00000000 (0000ms, 260265ms total)
T1D7C 11894:991 JLINK_ReadReg(R1)  returns 0x00000000 (0000ms, 260265ms total)
T1D7C 11894:991 JLINK_ReadReg(R2)  returns 0x00000000 (0000ms, 260265ms total)
T1D7C 11894:991 JLINK_ReadReg(R3)  returns 0x00000000 (0000ms, 260265ms total)
T1D7C 11894:991 JLINK_ReadReg(R4)  returns 0x00000000 (0000ms, 260265ms total)
T1D7C 11894:991 JLINK_ReadReg(R5)  returns 0x00000000 (0000ms, 260265ms total)
T1D7C 11894:991 JLINK_ReadReg(R6)  returns 0x00000000 (0000ms, 260265ms total)
T1D7C 11894:991 JLINK_ReadReg(R7)  returns 0x00000000 (0000ms, 260265ms total)
T1D7C 11894:991 JLINK_ReadReg(R8)  returns 0x00000000 (0000ms, 260265ms total)
T1D7C 11894:991 JLINK_ReadReg(R9)  returns 0x00000000 (0000ms, 260265ms total)
T1D7C 11894:991 JLINK_ReadReg(R10)  returns 0x00000000 (0000ms, 260265ms total)
T1D7C 11894:991 JLINK_ReadReg(R11)  returns 0x00000000 (0000ms, 260265ms total)
T1D7C 11894:991 JLINK_ReadReg(R12)  returns 0x00000000 (0000ms, 260265ms total)
T1D7C 11894:991 JLINK_ReadReg(R13 (SP))  returns 0x20205040 (0000ms, 260265ms total)
T1D7C 11894:991 JLINK_ReadReg(R14)  returns 0xFFFFFFFF (0000ms, 260265ms total)
T1D7C 11894:991 JLINK_ReadReg(R15 (PC))  returns 0x0020C788 (0000ms, 260265ms total)
T1D7C 11894:991 JLINK_ReadReg(XPSR)  returns 0x01000000 (0000ms, 260265ms total)
T1D7C 11894:991 JLINK_ReadReg(MSP)  returns 0x20205040 (0000ms, 260265ms total)
T1D7C 11894:991 JLINK_ReadReg(PSP)  returns 0x00000000 (0000ms, 260265ms total)
T1D7C 11894:991 JLINK_ReadReg(CFBP)  returns 0x00000000 (0000ms, 260265ms total)
T1D7C 11894:991 JLINK_ReadReg(FPSCR)  returns 0x00000000 (0003ms, 260268ms total)
T1D7C 11894:994 JLINK_ReadReg(FPS0)  returns 0x00000000 (0000ms, 260268ms total)
T1D7C 11894:994 JLINK_ReadReg(FPS1)  returns 0x00000000 (0000ms, 260268ms total)
T1D7C 11894:994 JLINK_ReadReg(FPS2)  returns 0x00000000 (0000ms, 260268ms total)
T1D7C 11894:994 JLINK_ReadReg(FPS3)  returns 0x00000000 (0000ms, 260268ms total)
T1D7C 11894:994 JLINK_ReadReg(FPS4)  returns 0x00000000 (0000ms, 260268ms total)
T1D7C 11894:994 JLINK_ReadReg(FPS5)  returns 0x00000000 (0000ms, 260268ms total)
T1D7C 11894:994 JLINK_ReadReg(FPS6)  returns 0x00000000 (0000ms, 260268ms total)
T1D7C 11894:994 JLINK_ReadReg(FPS7)  returns 0x00000000 (0000ms, 260268ms total)
T1D7C 11894:994 JLINK_ReadReg(FPS8)  returns 0x00000000 (0000ms, 260268ms total)
T1D7C 11894:994 JLINK_ReadReg(FPS9)  returns 0x00000000 (0000ms, 260268ms total)
T1D7C 11894:994 JLINK_ReadReg(FPS10)  returns 0x00000000 (0000ms, 260268ms total)
T1D7C 11894:994 JLINK_ReadReg(FPS11)  returns 0x00000000 (0000ms, 260268ms total)
T1D7C 11894:994 JLINK_ReadReg(FPS12)  returns 0x00000000 (0000ms, 260268ms total)
T1D7C 11894:994 JLINK_ReadReg(FPS13)  returns 0x00000000 (0000ms, 260268ms total)
T1D7C 11894:994 JLINK_ReadReg(FPS14)  returns 0x00000000 (0000ms, 260268ms total)
T1D7C 11894:994 JLINK_ReadReg(FPS15)  returns 0xFFFFFFFF (0000ms, 260268ms total)
T1D7C 11894:994 JLINK_ReadReg(FPS16)  returns 0x00000000 (0000ms, 260268ms total)
T1D7C 11894:994 JLINK_ReadReg(FPS17)  returns 0x00000000 (0000ms, 260268ms total)
T1D7C 11894:994 JLINK_ReadReg(FPS18)  returns 0x00000000 (0000ms, 260268ms total)
T1D7C 11894:994 JLINK_ReadReg(FPS19)  returns 0x00000000 (0000ms, 260268ms total)
T1D7C 11894:994 JLINK_ReadReg(FPS20)  returns 0x00000000 (0000ms, 260268ms total)
T1D7C 11894:994 JLINK_ReadReg(FPS21)  returns 0x00000000 (0000ms, 260268ms total)
T1D7C 11894:994 JLINK_ReadReg(FPS22)  returns 0x00000000 (0000ms, 260268ms total)
T1D7C 11894:994 JLINK_ReadReg(FPS23)  returns 0x00000000 (0000ms, 260268ms total)
T1D7C 11894:994 JLINK_ReadReg(FPS24)  returns 0x00000000 (0000ms, 260268ms total)
T1D7C 11894:994 JLINK_ReadReg(FPS25)  returns 0x00000000 (0000ms, 260268ms total)
T1D7C 11894:994 JLINK_ReadReg(FPS26)  returns 0x00000000 (0000ms, 260268ms total)
T1D7C 11894:994 JLINK_ReadReg(FPS27)  returns 0x00000000 (0000ms, 260268ms total)
T1D7C 11894:994 JLINK_ReadReg(FPS28)  returns 0x00000000 (0000ms, 260268ms total)
T1D7C 11894:994 JLINK_ReadReg(FPS29)  returns 0x00000000 (0000ms, 260268ms total)
T1D7C 11894:994 JLINK_ReadReg(FPS30)  returns 0x00000000 (0000ms, 260268ms total)
T1D7C 11894:994 JLINK_ReadReg(FPS31)  returns 0xFFFFFFFF (0000ms, 260268ms total)
T1D7C 11895:802 JLINK_WriteReg(R13 (SP), 0x82000000)  returns 0x00 (0001ms, 260269ms total)
T1D7C 11895:803 JLINK_ReadReg(R0)  returns 0x00000000 (0000ms, 260269ms total)
T1D7C 11895:803 JLINK_ReadReg(R1)  returns 0x00000000 (0000ms, 260269ms total)
T1D7C 11895:803 JLINK_ReadReg(R2)  returns 0x00000000 (0000ms, 260269ms total)
T1D7C 11895:803 JLINK_ReadReg(R3)  returns 0x00000000 (0000ms, 260269ms total)
T1D7C 11895:803 JLINK_ReadReg(R4)  returns 0x00000000 (0000ms, 260269ms total)
T1D7C 11895:803 JLINK_ReadReg(R5)  returns 0x00000000 (0000ms, 260269ms total)
T1D7C 11895:803 JLINK_ReadReg(R6)  returns 0x00000000 (0000ms, 260269ms total)
T1D7C 11895:803 JLINK_ReadReg(R7)  returns 0x00000000 (0000ms, 260269ms total)
T1D7C 11895:803 JLINK_ReadReg(R8)  returns 0x00000000 (0000ms, 260269ms total)
T1D7C 11895:803 JLINK_ReadReg(R9)  returns 0x00000000 (0000ms, 260269ms total)
T1D7C 11895:803 JLINK_ReadReg(R10)  returns 0x00000000 (0000ms, 260269ms total)
T1D7C 11895:803 JLINK_ReadReg(R11)  returns 0x00000000 (0000ms, 260269ms total)
T1D7C 11895:803 JLINK_ReadReg(R12)  returns 0x00000000 (0000ms, 260269ms total)
T1D7C 11895:803 JLINK_ReadReg(R13 (SP))  returns 0x82000000 (0000ms, 260269ms total)
T1D7C 11895:803 JLINK_ReadReg(R14)  returns 0xFFFFFFFF (0000ms, 260269ms total)
T1D7C 11895:803 JLINK_ReadReg(R15 (PC))  returns 0x0020C788 (0000ms, 260269ms total)
T1D7C 11895:803 JLINK_ReadReg(XPSR)  returns 0x01000000 (0000ms, 260269ms total)
T1D7C 11895:803 JLINK_ReadReg(MSP)  returns 0x82000000 (0000ms, 260269ms total)
T1D7C 11895:803 JLINK_ReadReg(PSP)  returns 0x00000000 (0000ms, 260269ms total)
T1D7C 11895:803 JLINK_ReadReg(CFBP)  returns 0x00000000 (0000ms, 260269ms total)
T1D7C 11895:803 JLINK_ReadReg(FPSCR)  returns 0x00000000 (0000ms, 260269ms total)
T1D7C 11895:803 JLINK_ReadReg(FPS0)  returns 0x00000000 (0000ms, 260269ms total)
T1D7C 11895:803 JLINK_ReadReg(FPS1)  returns 0x00000000 (0000ms, 260269ms total)
T1D7C 11895:803 JLINK_ReadReg(FPS2)  returns 0x00000000 (0000ms, 260269ms total)
T1D7C 11895:803 JLINK_ReadReg(FPS3)  returns 0x00000000 (0000ms, 260269ms total)
T1D7C 11895:803 JLINK_ReadReg(FPS4)  returns 0x00000000 (0000ms, 260269ms total)
T1D7C 11895:803 JLINK_ReadReg(FPS5)  returns 0x00000000 (0000ms, 260269ms total)
T1D7C 11895:803 JLINK_ReadReg(FPS6)  returns 0x00000000 (0000ms, 260269ms total)
T1D7C 11895:803 JLINK_ReadReg(FPS7)  returns 0x00000000 (0000ms, 260269ms total)
T1D7C 11895:803 JLINK_ReadReg(FPS8)  returns 0x00000000 (0000ms, 260269ms total)
T1D7C 11895:803 JLINK_ReadReg(FPS9)  returns 0x00000000 (0000ms, 260269ms total)
T1D7C 11895:803 JLINK_ReadReg(FPS10)  returns 0x00000000 (0000ms, 260269ms total)
T1D7C 11895:803 JLINK_ReadReg(FPS11)  returns 0x00000000 (0000ms, 260269ms total)
T1D7C 11895:803 JLINK_ReadReg(FPS12)  returns 0x00000000 (0000ms, 260269ms total)
T1D7C 11895:803 JLINK_ReadReg(FPS13)  returns 0x00000000 (0000ms, 260269ms total)
T1D7C 11895:803 JLINK_ReadReg(FPS14)  returns 0x00000000 (0000ms, 260269ms total)
T1D7C 11895:803 JLINK_ReadReg(FPS15)  returns 0xFFFFFFFF (0000ms, 260269ms total)
T1D7C 11895:803 JLINK_ReadReg(FPS16)  returns 0x00000000 (0000ms, 260269ms total)
T1D7C 11895:803 JLINK_ReadReg(FPS17)  returns 0x00000000 (0000ms, 260269ms total)
T1D7C 11895:803 JLINK_ReadReg(FPS18)  returns 0x00000000 (0000ms, 260269ms total)
T1D7C 11895:803 JLINK_ReadReg(FPS19)  returns 0x00000000 (0000ms, 260269ms total)
T1D7C 11895:803 JLINK_ReadReg(FPS20)  returns 0x00000000 (0000ms, 260269ms total)
T1D7C 11895:803 JLINK_ReadReg(FPS21)  returns 0x00000000 (0000ms, 260269ms total)
T1D7C 11895:803 JLINK_ReadReg(FPS22)  returns 0x00000000 (0000ms, 260269ms total)
T1D7C 11895:803 JLINK_ReadReg(FPS23)  returns 0x00000000 (0000ms, 260269ms total)
T1D7C 11895:803 JLINK_ReadReg(FPS24)  returns 0x00000000 (0000ms, 260269ms total)
T1D7C 11895:803 JLINK_ReadReg(FPS25)  returns 0x00000000 (0000ms, 260269ms total)
T1D7C 11895:803 JLINK_ReadReg(FPS26)  returns 0x00000000 (0000ms, 260269ms total)
T1D7C 11895:803 JLINK_ReadReg(FPS27)  returns 0x00000000 (0000ms, 260269ms total)
T1D7C 11895:803 JLINK_ReadReg(FPS28)  returns 0x00000000 (0000ms, 260269ms total)
T1D7C 11895:803 JLINK_ReadReg(FPS29)  returns 0x00000000 (0000ms, 260269ms total)
T1D7C 11895:803 JLINK_ReadReg(FPS30)  returns 0x00000000 (0000ms, 260269ms total)
T1D7C 11895:803 JLINK_ReadReg(FPS31)  returns 0xFFFFFFFF (0000ms, 260269ms total)
T1D7C 11895:803 JLINK_WriteReg(R15 (PC), 0x60002D14)  returns 0x00 (0000ms, 260269ms total)
T1D7C 11895:803 JLINK_ReadReg(R0)  returns 0x00000000 (0000ms, 260269ms total)
T1D7C 11895:803 JLINK_ReadReg(R1)  returns 0x00000000 (0000ms, 260269ms total)
T1D7C 11895:803 JLINK_ReadReg(R2)  returns 0x00000000 (0000ms, 260269ms total)
T1D7C 11895:803 JLINK_ReadReg(R3)  returns 0x00000000 (0000ms, 260269ms total)
T1D7C 11895:803 JLINK_ReadReg(R4)  returns 0x00000000 (0000ms, 260269ms total)
T1D7C 11895:803 JLINK_ReadReg(R5)  returns 0x00000000 (0000ms, 260269ms total)
T1D7C 11895:803 JLINK_ReadReg(R6)  returns 0x00000000 (0000ms, 260269ms total)
T1D7C 11895:803 JLINK_ReadReg(R7)  returns 0x00000000 (0000ms, 260269ms total)
T1D7C 11895:803 JLINK_ReadReg(R8)  returns 0x00000000 (0000ms, 260269ms total)
T1D7C 11895:803 JLINK_ReadReg(R9)  returns 0x00000000 (0000ms, 260269ms total)
T1D7C 11895:803 JLINK_ReadReg(R10)  returns 0x00000000 (0000ms, 260269ms total)
T1D7C 11895:803 JLINK_ReadReg(R11)  returns 0x00000000 (0000ms, 260269ms total)
T1D7C 11895:803 JLINK_ReadReg(R12)  returns 0x00000000 (0000ms, 260269ms total)
T1D7C 11895:803 JLINK_ReadReg(R13 (SP))  returns 0x82000000 (0000ms, 260269ms total)
T1D7C 11895:803 JLINK_ReadReg(R14)  returns 0xFFFFFFFF (0000ms, 260269ms total)
T1D7C 11895:803 JLINK_ReadReg(R15 (PC))  returns 0x60002D14 (0000ms, 260269ms total)
T1D7C 11895:803 JLINK_ReadReg(XPSR)  returns 0x01000000 (0001ms, 260270ms total)
T1D7C 11895:804 JLINK_ReadReg(MSP)  returns 0x82000000 (0000ms, 260270ms total)
T1D7C 11895:804 JLINK_ReadReg(PSP)  returns 0x00000000 (0000ms, 260270ms total)
T1D7C 11895:804 JLINK_ReadReg(CFBP)  returns 0x00000000 (0000ms, 260270ms total)
T1D7C 11895:804 JLINK_ReadReg(FPSCR)  returns 0x00000000 (0000ms, 260270ms total)
T1D7C 11895:804 JLINK_ReadReg(FPS0)  returns 0x00000000 (0000ms, 260270ms total)
T1D7C 11895:804 JLINK_ReadReg(FPS1)  returns 0x00000000 (0000ms, 260270ms total)
T1D7C 11895:804 JLINK_ReadReg(FPS2)  returns 0x00000000 (0000ms, 260270ms total)
T1D7C 11895:804 JLINK_ReadReg(FPS3)  returns 0x00000000 (0000ms, 260270ms total)
T1D7C 11895:804 JLINK_ReadReg(FPS4)  returns 0x00000000 (0000ms, 260270ms total)
T1D7C 11895:804 JLINK_ReadReg(FPS5)  returns 0x00000000 (0000ms, 260270ms total)
T1D7C 11895:804 JLINK_ReadReg(FPS6)  returns 0x00000000 (0000ms, 260270ms total)
T1D7C 11895:804 JLINK_ReadReg(FPS7)  returns 0x00000000 (0000ms, 260270ms total)
T1D7C 11895:804 JLINK_ReadReg(FPS8)  returns 0x00000000 (0000ms, 260270ms total)
T1D7C 11895:804 JLINK_ReadReg(FPS9)  returns 0x00000000 (0000ms, 260270ms total)
T1D7C 11895:804 JLINK_ReadReg(FPS10)  returns 0x00000000 (0000ms, 260270ms total)
T1D7C 11895:804 JLINK_ReadReg(FPS11)  returns 0x00000000 (0000ms, 260270ms total)
T1D7C 11895:804 JLINK_ReadReg(FPS12)  returns 0x00000000 (0000ms, 260270ms total)
T1D7C 11895:804 JLINK_ReadReg(FPS13)  returns 0x00000000 (0000ms, 260270ms total)
T1D7C 11895:804 JLINK_ReadReg(FPS14)  returns 0x00000000 (0000ms, 260270ms total)
T1D7C 11895:804 JLINK_ReadReg(FPS15)  returns 0xFFFFFFFF (0000ms, 260270ms total)
T1D7C 11895:804 JLINK_ReadReg(FPS16)  returns 0x00000000 (0000ms, 260270ms total)
T1D7C 11895:804 JLINK_ReadReg(FPS17)  returns 0x00000000 (0000ms, 260270ms total)
T1D7C 11895:804 JLINK_ReadReg(FPS18)  returns 0x00000000 (0000ms, 260270ms total)
T1D7C 11895:804 JLINK_ReadReg(FPS19)  returns 0x00000000 (0000ms, 260270ms total)
T1D7C 11895:804 JLINK_ReadReg(FPS20)  returns 0x00000000 (0000ms, 260270ms total)
T1D7C 11895:804 JLINK_ReadReg(FPS21)  returns 0x00000000 (0000ms, 260270ms total)
T1D7C 11895:804 JLINK_ReadReg(FPS22)  returns 0x00000000 (0000ms, 260270ms total)
T1D7C 11895:804 JLINK_ReadReg(FPS23)  returns 0x00000000 (0000ms, 260270ms total)
T1D7C 11895:804 JLINK_ReadReg(FPS24)  returns 0x00000000 (0000ms, 260270ms total)
T1D7C 11895:804 JLINK_ReadReg(FPS25)  returns 0x00000000 (0000ms, 260270ms total)
T1D7C 11895:804 JLINK_ReadReg(FPS26)  returns 0x00000000 (0000ms, 260270ms total)
T1D7C 11895:804 JLINK_ReadReg(FPS27)  returns 0x00000000 (0000ms, 260270ms total)
T1D7C 11895:804 JLINK_ReadReg(FPS28)  returns 0x00000000 (0000ms, 260270ms total)
T1D7C 11895:804 JLINK_ReadReg(FPS29)  returns 0x00000000 (0000ms, 260270ms total)
T1D7C 11895:804 JLINK_ReadReg(FPS30)  returns 0x00000000 (0000ms, 260270ms total)
T1D7C 11895:804 JLINK_ReadReg(FPS31)  returns 0xFFFFFFFF (0000ms, 260270ms total)
T1D7C 11895:804 JLINK_WriteMemEx(0xE000ED08, 0x0004 Bytes, ..., Flags = 0x02000000) - Data: 00 20 00 60 -- CPU_WriteMem(4 bytes @ 0xE000ED08)  returns 0x04 (0000ms, 260270ms total)
T1EBC 11895:881 JLINK_ReadMemEx(0x60002D14, 0x0002 Bytes, ..., Flags = 0x02000000) -- CPU_ReadMem(2 bytes @ 0x60002D14) - Data: 00 00  returns 0x02 (0000ms, 260270ms total)
T1EBC 11895:881 JLINK_SetBPEx(Addr = 0x6000BD6C, Type = 0xFFFFFFF2)  returns 0x00000001 (0000ms, 260270ms total)
T1EBC 11895:881 JLINK_SetBPEx(Addr = 0x6000C45E, Type = 0xFFFFFFF2)  returns 0x00000002 (0000ms, 260270ms total)
T1EBC 11895:881 JLINK_Go() -- CPU_WriteMem(4 bytes @ 0xE0002000) -- CPU_WriteMem(4 bytes @ 0xE0002000) -- CPU_ReadMem(4 bytes @ 0xE0001000) -- CPU_WriteMem(4 bytes @ 0xE0002008) -- CPU_WriteMem(4 bytes @ 0xE000200C) -- CPU_WriteMem(4 bytes @ 0xE0002010) -- CPU_WriteMem(4 bytes @ 0xE0002014) -- CPU_WriteMem(4 bytes @ 0xE0002018) -- CPU_WriteMem(4 bytes @ 0xE000201C) -- CPU_WriteMem(4 bytes @ 0xE0002020) -- CPU_WriteMem(4 bytes @ 0xE0002024) -- CPU_WriteMem(4 bytes @ 0xE0001004) (0003ms, 260273ms total)
T1EBC 11895:985 JLINK_IsHalted()  returns TRUE (0001ms, 260274ms total)
T1EBC 11895:986 JLINK_Halt()  returns 0x00 (0000ms, 260273ms total)
T1EBC 11895:986 JLINK_IsHalted()  returns TRUE (0000ms, 260273ms total)
T1EBC 11895:986 JLINK_IsHalted()  returns TRUE (0000ms, 260273ms total)
T1EBC 11895:986 JLINK_IsHalted()  returns TRUE (0000ms, 260273ms total)
T1EBC 11895:986 JLINK_ReadReg(R15 (PC))  returns 0x6000BD6C (0000ms, 260273ms total)
T1EBC 11895:986 JLINK_ReadReg(XPSR)  returns 0x61000000 (0000ms, 260273ms total)
T1EBC 11895:986 JLINK_ClrBPEx(BPHandle = 0x00000001)  returns 0x00 (0000ms, 260273ms total)
T1EBC 11895:986 JLINK_ClrBPEx(BPHandle = 0x00000002)  returns 0x00 (0000ms, 260273ms total)
T1EBC 11895:986 JLINK_ReadMemU32(0xE000ED30, 0x0001 Items, ...) -- CPU_ReadMem(4 bytes @ 0xE000ED30) - Data: 02 00 00 00  returns 0x01 (0001ms, 260274ms total)
T1EBC 11895:987 JLINK_ReadMemU32(0xE0001028, 0x0001 Items, ...) -- CPU_ReadMem(4 bytes @ 0xE0001028) - Data: 00 00 00 00  returns 0x01 (0000ms, 260274ms total)
T1EBC 11895:987 JLINK_ReadMemU32(0xE0001038, 0x0001 Items, ...) -- CPU_ReadMem(4 bytes @ 0xE0001038) - Data: 00 02 00 00  returns 0x01 (0000ms, 260274ms total)
T1EBC 11895:987 JLINK_ReadMemU32(0xE0001048, 0x0001 Items, ...) -- CPU_ReadMem(4 bytes @ 0xE0001048) - Data: 00 00 00 00  returns 0x01 (0001ms, 260275ms total)
T1EBC 11895:988 JLINK_ReadMemU32(0xE0001058, 0x0001 Items, ...) -- CPU_ReadMem(4 bytes @ 0xE0001058) - Data: 00 00 00 00  returns 0x01 (0000ms, 260275ms total)
T1EBC 11895:995 JLINK_ReadReg(R0)  returns 0x00000000 (0000ms, 260275ms total)
T1EBC 11895:995 JLINK_ReadReg(R1)  returns 0x00000000 (0000ms, 260275ms total)
T1EBC 11895:995 JLINK_ReadReg(R2)  returns 0x00000000 (0000ms, 260275ms total)
T1EBC 11895:995 JLINK_ReadReg(R3)  returns 0x00000000 (0000ms, 260275ms total)
T1EBC 11895:995 JLINK_ReadReg(R4)  returns 0x00000000 (0000ms, 260275ms total)
T1EBC 11895:995 JLINK_ReadReg(R5)  returns 0x00000000 (0000ms, 260275ms total)
T1EBC 11895:995 JLINK_ReadReg(R6)  returns 0x00000000 (0000ms, 260275ms total)
T1EBC 11895:995 JLINK_ReadReg(R7)  returns 0x00000000 (0000ms, 260275ms total)
T1EBC 11895:995 JLINK_ReadReg(R8)  returns 0x00000000 (0000ms, 260275ms total)
T1EBC 11895:995 JLINK_ReadReg(R9)  returns 0x00000000 (0000ms, 260275ms total)
T1EBC 11895:995 JLINK_ReadReg(R10)  returns 0x00000000 (0000ms, 260275ms total)
T1EBC 11895:995 JLINK_ReadReg(R11)  returns 0x00000000 (0000ms, 260275ms total)
T1EBC 11895:995 JLINK_ReadReg(R12)  returns 0x00000000 (0000ms, 260275ms total)
T1EBC 11895:995 JLINK_ReadReg(R13 (SP))  returns 0x82000000 (0000ms, 260275ms total)
T1EBC 11895:995 JLINK_ReadReg(R14)  returns 0xFFFFFFFF (0000ms, 260275ms total)
T1EBC 11895:995 JLINK_ReadReg(R15 (PC))  returns 0x6000BD6C (0000ms, 260275ms total)
T1EBC 11895:995 JLINK_ReadReg(XPSR)  returns 0x61000000 (0000ms, 260275ms total)
T1EBC 11895:995 JLINK_ReadReg(MSP)  returns 0x82000000 (0000ms, 260275ms total)
T1EBC 11895:995 JLINK_ReadReg(PSP)  returns 0x00000000 (0000ms, 260275ms total)
T1EBC 11895:995 JLINK_ReadReg(CFBP)  returns 0x00000000 (0000ms, 260275ms total)
T1EBC 11895:995 JLINK_ReadReg(FPSCR)  returns 0x00000000 (0003ms, 260278ms total)
T1EBC 11895:998 JLINK_ReadReg(FPS0)  returns 0x00000000 (0000ms, 260278ms total)
T1EBC 11895:998 JLINK_ReadReg(FPS1)  returns 0x00000000 (0000ms, 260278ms total)
T1EBC 11895:998 JLINK_ReadReg(FPS2)  returns 0x00000000 (0000ms, 260278ms total)
T1EBC 11895:998 JLINK_ReadReg(FPS3)  returns 0x00000000 (0000ms, 260278ms total)
T1EBC 11895:998 JLINK_ReadReg(FPS4)  returns 0x00000000 (0000ms, 260278ms total)
T1EBC 11895:998 JLINK_ReadReg(FPS5)  returns 0x00000000 (0000ms, 260278ms total)
T1EBC 11895:998 JLINK_ReadReg(FPS6)  returns 0x00000000 (0000ms, 260278ms total)
T1EBC 11895:998 JLINK_ReadReg(FPS7)  returns 0x00000000 (0000ms, 260278ms total)
T1EBC 11895:998 JLINK_ReadReg(FPS8)  returns 0x00000000 (0000ms, 260278ms total)
T1EBC 11895:998 JLINK_ReadReg(FPS9)  returns 0x00000000 (0000ms, 260278ms total)
T1EBC 11895:998 JLINK_ReadReg(FPS10)  returns 0x00000000 (0000ms, 260278ms total)
T1EBC 11895:998 JLINK_ReadReg(FPS11)  returns 0x00000000 (0000ms, 260278ms total)
T1EBC 11895:998 JLINK_ReadReg(FPS12)  returns 0x00000000 (0000ms, 260278ms total)
T1EBC 11895:998 JLINK_ReadReg(FPS13)  returns 0x00000000 (0000ms, 260278ms total)
T1EBC 11895:998 JLINK_ReadReg(FPS14)  returns 0x00000000 (0000ms, 260278ms total)
T1EBC 11895:998 JLINK_ReadReg(FPS15)  returns 0xFFFFFFFF (0000ms, 260278ms total)
T1EBC 11895:998 JLINK_ReadReg(FPS16)  returns 0x00000000 (0000ms, 260278ms total)
T1EBC 11895:998 JLINK_ReadReg(FPS17)  returns 0x00000000 (0000ms, 260278ms total)
T1EBC 11895:998 JLINK_ReadReg(FPS18)  returns 0x00000000 (0000ms, 260278ms total)
T1EBC 11895:998 JLINK_ReadReg(FPS19)  returns 0x00000000 (0000ms, 260278ms total)
T1EBC 11895:998 JLINK_ReadReg(FPS20)  returns 0x00000000 (0000ms, 260278ms total)
T1EBC 11895:998 JLINK_ReadReg(FPS21)  returns 0x00000000 (0000ms, 260278ms total)
T1EBC 11895:998 JLINK_ReadReg(FPS22)  returns 0x00000000 (0000ms, 260278ms total)
T1EBC 11895:998 JLINK_ReadReg(FPS23)  returns 0x00000000 (0000ms, 260278ms total)
T1EBC 11895:998 JLINK_ReadReg(FPS24)  returns 0x00000000 (0000ms, 260278ms total)
T1EBC 11895:998 JLINK_ReadReg(FPS25)  returns 0x00000000 (0000ms, 260278ms total)
T1EBC 11895:998 JLINK_ReadReg(FPS26)  returns 0x00000000 (0000ms, 260278ms total)
T1EBC 11895:998 JLINK_ReadReg(FPS27)  returns 0x00000000 (0000ms, 260278ms total)
T1EBC 11895:998 JLINK_ReadReg(FPS28)  returns 0x00000000 (0000ms, 260278ms total)
T1EBC 11895:998 JLINK_ReadReg(FPS29)  returns 0x00000000 (0000ms, 260278ms total)
T1EBC 11895:998 JLINK_ReadReg(FPS30)  returns 0x00000000 (0000ms, 260278ms total)
T1EBC 11895:998 JLINK_ReadReg(FPS31)  returns 0xFFFFFFFF (0000ms, 260278ms total)
T1D7C 11897:999 JLINK_ReadMemEx(0x6000D06A, 0x0002 Bytes, ..., Flags = 0x02000000) -- CPU_ReadMem(64 bytes @ 0x6000D040) -- Updating DA cache (64 bytes @ 0x6000D040) -- Read from DA cache (2 bytes @ 0x6000D06A) - Data: 42 42  returns 0x02 (0001ms, 260279ms total)
T1D7C 11898:000 JLINK_ReadMemEx(0x6000D06C, 0x003C Bytes, ..., Flags = 0x02000000) -- CPU_ReadMem(64 bytes @ 0x6000D080) -- Updating DA cache (64 bytes @ 0x6000D080) -- Read from DA cache (60 bytes @ 0x6000D06C) - Data: 00 00 00 00 42 42 42 42 00 00 00 00 42 42 42 42 ...  returns 0x3C (0001ms, 260280ms total)
T1D7C 11901:824 JLINK_ReadMemEx(0x6000D02C, 0x003C Bytes, ..., Flags = 0x02000000) -- CPU_ReadMem(64 bytes @ 0x6000D000) -- Updating DA cache (64 bytes @ 0x6000D000) -- Read from DA cache (60 bytes @ 0x6000D02C) - Data: 00 00 00 00 42 42 42 42 00 00 00 00 42 42 42 42 ...  returns 0x3C (0000ms, 260280ms total)
T1D7C 11917:628 JLINK_SetResetType(JLINKARM_CM3_RESET_TYPE_NORMAL)  returns JLINKARM_CM3_RESET_TYPE_NORMAL (0000ms, 260280ms total)
T1D7C 11917:628 JLINK_Reset() -- CPU_WriteMem(4 bytes @ 0xE000EDF0) -- CPU_WriteMem(4 bytes @ 0xE000EDFC)Reset: Halt core after reset via DEMCR.VC_CORERESET. >0x35 TIF>Reset: Reset device via AIRCR.SYSRESETREQ. -- CPU_WriteMem(4 bytes @ 0xE000ED0C) >0x0D TIF> >0x28 TIF> -- CPU_ReadMem(4 bytes @ 0xE000EDF0) -- CPU_ReadMem(4 bytes @ 0xE000EDF0) -- CPU_WriteMem(4 bytes @ 0xE000EDF0) -- CPU_WriteMem(4 bytes @ 0xE000EDFC) -- CPU_ReadMem(4 bytes @ 0xE000EDF0) -- CPU_WriteMem(4 bytes @ 0xE0002000)
 -- CPU_ReadMem(4 bytes @ 0xE000EDFC) -- CPU_ReadMem(4 bytes @ 0xE0001000) -- CPU_WriteMem(4 bytes @ 0xE0001000) (0062ms, 260342ms total)
T1D7C 11917:696 JLINK_ReadReg(R15 (PC))  returns 0x60002B82 (0000ms, 260342ms total)
T1D7C 11917:696 JLINK_ReadReg(XPSR)  returns 0x81000003 (0000ms, 260342ms total)
T1D7C 11917:697 JLINK_ReadReg(R0)  returns 0x00000000 (0000ms, 260342ms total)
T1D7C 11917:697 JLINK_ReadReg(R1)  returns 0x00000000 (0000ms, 260342ms total)
T1D7C 11917:697 JLINK_ReadReg(R2)  returns 0x6002329C (0000ms, 260342ms total)
T1D7C 11917:697 JLINK_ReadReg(R3)  returns 0x000027B3 (0000ms, 260342ms total)
T1D7C 11917:697 JLINK_ReadReg(R4)  returns 0x00000002 (0000ms, 260342ms total)
T1D7C 11917:697 JLINK_ReadReg(R5)  returns 0x60025A53 (0000ms, 260342ms total)
T1D7C 11917:697 JLINK_ReadReg(R6)  returns 0x0000002C (0000ms, 260342ms total)
T1D7C 11917:697 JLINK_ReadReg(R7)  returns 0x800006BC (0000ms, 260342ms total)
T1D7C 11917:697 JLINK_ReadReg(R8)  returns 0x20202928 (0000ms, 260342ms total)
T1D7C 11917:697 JLINK_ReadReg(R9)  returns 0x000000F0 (0000ms, 260342ms total)
T1D7C 11917:697 JLINK_ReadReg(R10)  returns 0x600457D0 (0000ms, 260342ms total)
T1D7C 11917:697 JLINK_ReadReg(R11)  returns 0x600457D0 (0000ms, 260342ms total)
T1D7C 11917:697 JLINK_ReadReg(R12)  returns 0x00000000 (0000ms, 260342ms total)
T1D7C 11917:697 JLINK_ReadReg(R13 (SP))  returns 0x81FFFFA0 (0000ms, 260342ms total)
T1D7C 11917:697 JLINK_ReadReg(R14)  returns 0xFFFFFFF9 (0000ms, 260342ms total)
T1D7C 11917:697 JLINK_ReadReg(R15 (PC))  returns 0x60002B82 (0000ms, 260342ms total)
T1D7C 11917:697 JLINK_ReadReg(XPSR)  returns 0x81000003 (0000ms, 260342ms total)
T1D7C 11917:697 JLINK_ReadReg(MSP)  returns 0x81FFFFA0 (0000ms, 260342ms total)
T1D7C 11917:697 JLINK_ReadReg(PSP)  returns 0x82000000 (0000ms, 260342ms total)
T1D7C 11917:697 JLINK_ReadReg(CFBP)  returns 0x00000000 (0000ms, 260342ms total)
T1D7C 11917:697 JLINK_ReadReg(FPSCR)  returns 0x00000000 (0003ms, 260345ms total)
T1D7C 11917:700 JLINK_ReadReg(FPS0)  returns 0x00000000 (0000ms, 260345ms total)
T1D7C 11917:700 JLINK_ReadReg(FPS1)  returns 0x00000000 (0000ms, 260345ms total)
T1D7C 11917:700 JLINK_ReadReg(FPS2)  returns 0x00000000 (0000ms, 260345ms total)
T1D7C 11917:700 JLINK_ReadReg(FPS3)  returns 0x00000000 (0000ms, 260345ms total)
T1D7C 11917:700 JLINK_ReadReg(FPS4)  returns 0x00000000 (0000ms, 260345ms total)
T1D7C 11917:700 JLINK_ReadReg(FPS5)  returns 0x00000000 (0000ms, 260345ms total)
T1D7C 11917:700 JLINK_ReadReg(FPS6)  returns 0x00000000 (0000ms, 260345ms total)
T1D7C 11917:700 JLINK_ReadReg(FPS7)  returns 0x00000000 (0000ms, 260345ms total)
T1D7C 11917:700 JLINK_ReadReg(FPS8)  returns 0x00000000 (0000ms, 260345ms total)
T1D7C 11917:700 JLINK_ReadReg(FPS9)  returns 0x00000000 (0000ms, 260345ms total)
T1D7C 11917:700 JLINK_ReadReg(FPS10)  returns 0x00000000 (0000ms, 260345ms total)
T1D7C 11917:700 JLINK_ReadReg(FPS11)  returns 0x00000000 (0000ms, 260345ms total)
T1D7C 11917:700 JLINK_ReadReg(FPS12)  returns 0x00000000 (0000ms, 260345ms total)
T1D7C 11917:700 JLINK_ReadReg(FPS13)  returns 0x00000000 (0000ms, 260345ms total)
T1D7C 11917:700 JLINK_ReadReg(FPS14)  returns 0x00000000 (0000ms, 260345ms total)
T1D7C 11917:700 JLINK_ReadReg(FPS15)  returns 0xFFFFFFFF (0000ms, 260345ms total)
T1D7C 11917:700 JLINK_ReadReg(FPS16)  returns 0x00000000 (0000ms, 260345ms total)
T1D7C 11917:700 JLINK_ReadReg(FPS17)  returns 0x00000000 (0000ms, 260345ms total)
T1D7C 11917:700 JLINK_ReadReg(FPS18)  returns 0x00000000 (0000ms, 260345ms total)
T1D7C 11917:700 JLINK_ReadReg(FPS19)  returns 0x00000000 (0000ms, 260345ms total)
T1D7C 11917:700 JLINK_ReadReg(FPS20)  returns 0x00000000 (0000ms, 260345ms total)
T1D7C 11917:700 JLINK_ReadReg(FPS21)  returns 0x00000000 (0000ms, 260345ms total)
T1D7C 11917:700 JLINK_ReadReg(FPS22)  returns 0x00000000 (0000ms, 260345ms total)
T1D7C 11917:700 JLINK_ReadReg(FPS23)  returns 0x00000000 (0000ms, 260345ms total)
T1D7C 11917:700 JLINK_ReadReg(FPS24)  returns 0x00000000 (0000ms, 260345ms total)
T1D7C 11917:700 JLINK_ReadReg(FPS25)  returns 0x00000000 (0000ms, 260345ms total)
T1D7C 11917:700 JLINK_ReadReg(FPS26)  returns 0x00000000 (0000ms, 260345ms total)
T1D7C 11917:700 JLINK_ReadReg(FPS27)  returns 0x00000000 (0000ms, 260345ms total)
T1D7C 11917:700 JLINK_ReadReg(FPS28)  returns 0x00000000 (0000ms, 260345ms total)
T1D7C 11917:700 JLINK_ReadReg(FPS29)  returns 0x00000000 (0000ms, 260345ms total)
T1D7C 11917:700 JLINK_ReadReg(FPS30)  returns 0x00000000 (0000ms, 260345ms total)
T1D7C 11917:700 JLINK_ReadReg(FPS31)  returns 0xFFFFFFFF (0000ms, 260345ms total)
T1D7C 11917:700 JLINK_ReadMemEx(0x60002000, 0x0004 Bytes, ..., Flags = 0x02000000) -- CPU_ReadMem(4 bytes @ 0x60002000) - Data: 00 00 00 82  returns 0x04 (0000ms, 260345ms total)
T1D7C 11917:700 JLINK_WriteReg(R13 (SP), 0x82000000)  returns 0x00 (0000ms, 260345ms total)
T1D7C 11917:700 JLINK_ReadReg(R0)  returns 0x00000000 (0000ms, 260345ms total)
T1D7C 11917:700 JLINK_ReadReg(R1)  returns 0x00000000 (0000ms, 260345ms total)
T1D7C 11917:700 JLINK_ReadReg(R2)  returns 0x6002329C (0000ms, 260345ms total)
T1D7C 11917:700 JLINK_ReadReg(R3)  returns 0x000027B3 (0000ms, 260345ms total)
T1D7C 11917:700 JLINK_ReadReg(R4)  returns 0x00000002 (0000ms, 260345ms total)
T1D7C 11917:700 JLINK_ReadReg(R5)  returns 0x60025A53 (0000ms, 260345ms total)
T1D7C 11917:700 JLINK_ReadReg(R6)  returns 0x0000002C (0000ms, 260345ms total)
T1D7C 11917:700 JLINK_ReadReg(R7)  returns 0x800006BC (0000ms, 260345ms total)
T1D7C 11917:700 JLINK_ReadReg(R8)  returns 0x20202928 (0000ms, 260345ms total)
T1D7C 11917:700 JLINK_ReadReg(R9)  returns 0x000000F0 (0000ms, 260345ms total)
T1D7C 11917:700 JLINK_ReadReg(R10)  returns 0x600457D0 (0000ms, 260345ms total)
T1D7C 11917:700 JLINK_ReadReg(R11)  returns 0x600457D0 (0000ms, 260345ms total)
T1D7C 11917:700 JLINK_ReadReg(R12)  returns 0x00000000 (0000ms, 260345ms total)
T1D7C 11917:700 JLINK_ReadReg(R13 (SP))  returns 0x82000000 (0000ms, 260345ms total)
T1D7C 11917:700 JLINK_ReadReg(R14)  returns 0xFFFFFFF9 (0000ms, 260345ms total)
T1D7C 11917:700 JLINK_ReadReg(R15 (PC))  returns 0x60002B82 (0000ms, 260345ms total)
T1D7C 11917:700 JLINK_ReadReg(XPSR)  returns 0x81000003 (0000ms, 260345ms total)
T1D7C 11917:700 JLINK_ReadReg(MSP)  returns 0x82000000 (0000ms, 260345ms total)
T1D7C 11917:700 JLINK_ReadReg(PSP)  returns 0x82000000 (0000ms, 260345ms total)
T1D7C 11917:700 JLINK_ReadReg(CFBP)  returns 0x00000000 (0000ms, 260345ms total)
T1D7C 11917:700 JLINK_ReadReg(FPSCR)  returns 0x00000000 (0000ms, 260345ms total)
T1D7C 11917:700 JLINK_ReadReg(FPS0)  returns 0x00000000 (0000ms, 260345ms total)
T1D7C 11917:700 JLINK_ReadReg(FPS1)  returns 0x00000000 (0000ms, 260345ms total)
T1D7C 11917:700 JLINK_ReadReg(FPS2)  returns 0x00000000 (0000ms, 260345ms total)
T1D7C 11917:700 JLINK_ReadReg(FPS3)  returns 0x00000000 (0000ms, 260345ms total)
T1D7C 11917:700 JLINK_ReadReg(FPS4)  returns 0x00000000 (0000ms, 260345ms total)
T1D7C 11917:700 JLINK_ReadReg(FPS5)  returns 0x00000000 (0000ms, 260345ms total)
T1D7C 11917:700 JLINK_ReadReg(FPS6)  returns 0x00000000 (0000ms, 260345ms total)
T1D7C 11917:700 JLINK_ReadReg(FPS7)  returns 0x00000000 (0000ms, 260345ms total)
T1D7C 11917:700 JLINK_ReadReg(FPS8)  returns 0x00000000 (0000ms, 260345ms total)
T1D7C 11917:700 JLINK_ReadReg(FPS9)  returns 0x00000000 (0000ms, 260345ms total)
T1D7C 11917:700 JLINK_ReadReg(FPS10)  returns 0x00000000 (0000ms, 260345ms total)
T1D7C 11917:700 JLINK_ReadReg(FPS11)  returns 0x00000000 (0001ms, 260346ms total)
T1D7C 11917:701 JLINK_ReadReg(FPS12)  returns 0x00000000 (0000ms, 260346ms total)
T1D7C 11917:701 JLINK_ReadReg(FPS13)  returns 0x00000000 (0000ms, 260346ms total)
T1D7C 11917:701 JLINK_ReadReg(FPS14)  returns 0x00000000 (0000ms, 260346ms total)
T1D7C 11917:701 JLINK_ReadReg(FPS15)  returns 0xFFFFFFFF (0000ms, 260346ms total)
T1D7C 11917:701 JLINK_ReadReg(FPS16)  returns 0x00000000 (0000ms, 260346ms total)
T1D7C 11917:701 JLINK_ReadReg(FPS17)  returns 0x00000000 (0000ms, 260346ms total)
T1D7C 11917:701 JLINK_ReadReg(FPS18)  returns 0x00000000 (0000ms, 260346ms total)
T1D7C 11917:701 JLINK_ReadReg(FPS19)  returns 0x00000000 (0000ms, 260346ms total)
T1D7C 11917:701 JLINK_ReadReg(FPS20)  returns 0x00000000 (0000ms, 260346ms total)
T1D7C 11917:701 JLINK_ReadReg(FPS21)  returns 0x00000000 (0000ms, 260346ms total)
T1D7C 11917:701 JLINK_ReadReg(FPS22)  returns 0x00000000 (0000ms, 260346ms total)
T1D7C 11917:701 JLINK_ReadReg(FPS23)  returns 0x00000000 (0000ms, 260346ms total)
T1D7C 11917:701 JLINK_ReadReg(FPS24)  returns 0x00000000 (0000ms, 260346ms total)
T1D7C 11917:701 JLINK_ReadReg(FPS25)  returns 0x00000000 (0000ms, 260346ms total)
T1D7C 11917:701 JLINK_ReadReg(FPS26)  returns 0x00000000 (0000ms, 260346ms total)
T1D7C 11917:701 JLINK_ReadReg(FPS27)  returns 0x00000000 (0000ms, 260346ms total)
T1D7C 11917:701 JLINK_ReadReg(FPS28)  returns 0x00000000 (0000ms, 260346ms total)
T1D7C 11917:701 JLINK_ReadReg(FPS29)  returns 0x00000000 (0000ms, 260346ms total)
T1D7C 11917:701 JLINK_ReadReg(FPS30)  returns 0x00000000 (0000ms, 260346ms total)
T1D7C 11917:701 JLINK_ReadReg(FPS31)  returns 0xFFFFFFFF (0000ms, 260346ms total)
T1D7C 11917:701 JLINK_ReadMemEx(0x60002004, 0x0004 Bytes, ..., Flags = 0x02000000) -- CPU_ReadMem(4 bytes @ 0x60002004) - Data: 15 2D 00 60  returns 0x04 (0000ms, 260346ms total)
T1D7C 11917:701 JLINK_WriteReg(R15 (PC), 0x60002D14)  returns 0x00 (0000ms, 260346ms total)
T1D7C 11917:701 JLINK_ReadReg(R0)  returns 0x00000000 (0000ms, 260346ms total)
T1D7C 11917:701 JLINK_ReadReg(R1)  returns 0x00000000 (0000ms, 260346ms total)
T1D7C 11917:701 JLINK_ReadReg(R2)  returns 0x6002329C (0000ms, 260346ms total)
T1D7C 11917:701 JLINK_ReadReg(R3)  returns 0x000027B3 (0000ms, 260346ms total)
T1D7C 11917:701 JLINK_ReadReg(R4)  returns 0x00000002 (0000ms, 260346ms total)
T1D7C 11917:701 JLINK_ReadReg(R5)  returns 0x60025A53 (0000ms, 260346ms total)
T1D7C 11917:701 JLINK_ReadReg(R6)  returns 0x0000002C (0000ms, 260346ms total)
T1D7C 11917:701 JLINK_ReadReg(R7)  returns 0x800006BC (0000ms, 260346ms total)
T1D7C 11917:701 JLINK_ReadReg(R8)  returns 0x20202928 (0000ms, 260346ms total)
T1D7C 11917:701 JLINK_ReadReg(R9)  returns 0x000000F0 (0000ms, 260346ms total)
T1D7C 11917:701 JLINK_ReadReg(R10)  returns 0x600457D0 (0000ms, 260346ms total)
T1D7C 11917:701 JLINK_ReadReg(R11)  returns 0x600457D0 (0000ms, 260346ms total)
T1D7C 11917:701 JLINK_ReadReg(R12)  returns 0x00000000 (0000ms, 260346ms total)
T1D7C 11917:701 JLINK_ReadReg(R13 (SP))  returns 0x82000000 (0000ms, 260346ms total)
T1D7C 11917:701 JLINK_ReadReg(R14)  returns 0xFFFFFFF9 (0000ms, 260346ms total)
T1D7C 11917:701 JLINK_ReadReg(R15 (PC))  returns 0x60002D14 (0000ms, 260346ms total)
T1D7C 11917:701 JLINK_ReadReg(XPSR)  returns 0x81000003 (0000ms, 260346ms total)
T1D7C 11917:701 JLINK_ReadReg(MSP)  returns 0x82000000 (0000ms, 260346ms total)
T1D7C 11917:701 JLINK_ReadReg(PSP)  returns 0x82000000 (0000ms, 260346ms total)
T1D7C 11917:701 JLINK_ReadReg(CFBP)  returns 0x00000000 (0000ms, 260346ms total)
T1D7C 11917:701 JLINK_ReadReg(FPSCR)  returns 0x00000000 (0000ms, 260346ms total)
T1D7C 11917:701 JLINK_ReadReg(FPS0)  returns 0x00000000 (0000ms, 260346ms total)
T1D7C 11917:701 JLINK_ReadReg(FPS1)  returns 0x00000000 (0000ms, 260346ms total)
T1D7C 11917:701 JLINK_ReadReg(FPS2)  returns 0x00000000 (0000ms, 260346ms total)
T1D7C 11917:701 JLINK_ReadReg(FPS3)  returns 0x00000000 (0000ms, 260346ms total)
T1D7C 11917:701 JLINK_ReadReg(FPS4)  returns 0x00000000 (0000ms, 260346ms total)
T1D7C 11917:701 JLINK_ReadReg(FPS5)  returns 0x00000000 (0000ms, 260346ms total)
T1D7C 11917:701 JLINK_ReadReg(FPS6)  returns 0x00000000 (0000ms, 260346ms total)
T1D7C 11917:701 JLINK_ReadReg(FPS7)  returns 0x00000000 (0000ms, 260346ms total)
T1D7C 11917:701 JLINK_ReadReg(FPS8)  returns 0x00000000 (0000ms, 260346ms total)
T1D7C 11917:701 JLINK_ReadReg(FPS9)  returns 0x00000000 (0000ms, 260346ms total)
T1D7C 11917:701 JLINK_ReadReg(FPS10)  returns 0x00000000 (0000ms, 260346ms total)
T1D7C 11917:701 JLINK_ReadReg(FPS11)  returns 0x00000000 (0000ms, 260346ms total)
T1D7C 11917:701 JLINK_ReadReg(FPS12)  returns 0x00000000 (0000ms, 260346ms total)
T1D7C 11917:701 JLINK_ReadReg(FPS13)  returns 0x00000000 (0000ms, 260346ms total)
T1D7C 11917:701 JLINK_ReadReg(FPS14)  returns 0x00000000 (0000ms, 260346ms total)
T1D7C 11917:701 JLINK_ReadReg(FPS15)  returns 0xFFFFFFFF (0000ms, 260346ms total)
T1D7C 11917:701 JLINK_ReadReg(FPS16)  returns 0x00000000 (0000ms, 260346ms total)
T1D7C 11917:701 JLINK_ReadReg(FPS17)  returns 0x00000000 (0000ms, 260346ms total)
T1D7C 11917:701 JLINK_ReadReg(FPS18)  returns 0x00000000 (0000ms, 260346ms total)
T1D7C 11917:701 JLINK_ReadReg(FPS19)  returns 0x00000000 (0000ms, 260346ms total)
T1D7C 11917:701 JLINK_ReadReg(FPS20)  returns 0x00000000 (0000ms, 260346ms total)
T1D7C 11917:701 JLINK_ReadReg(FPS21)  returns 0x00000000 (0000ms, 260346ms total)
T1D7C 11917:701 JLINK_ReadReg(FPS22)  returns 0x00000000 (0000ms, 260346ms total)
T1D7C 11917:701 JLINK_ReadReg(FPS23)  returns 0x00000000 (0000ms, 260346ms total)
T1D7C 11917:701 JLINK_ReadReg(FPS24)  returns 0x00000000 (0000ms, 260346ms total)
T1D7C 11917:701 JLINK_ReadReg(FPS25)  returns 0x00000000 (0000ms, 260346ms total)
T1D7C 11917:701 JLINK_ReadReg(FPS26)  returns 0x00000000 (0000ms, 260346ms total)
T1D7C 11917:701 JLINK_ReadReg(FPS27)  returns 0x00000000 (0000ms, 260346ms total)
T1D7C 11917:701 JLINK_ReadReg(FPS28)  returns 0x00000000 (0000ms, 260346ms total)
T1D7C 11917:701 JLINK_ReadReg(FPS29)  returns 0x00000000 (0000ms, 260346ms total)
T1D7C 11917:701 JLINK_ReadReg(FPS30)  returns 0x00000000 (0000ms, 260346ms total)
T1D7C 11917:701 JLINK_ReadReg(FPS31)  returns 0xFFFFFFFF (0000ms, 260346ms total)
T1D7C 11917:701 JLINK_WriteMemEx(0xE000ED08, 0x0004 Bytes, ..., Flags = 0x02000000) - Data: 00 20 00 60 -- CPU_WriteMem(4 bytes @ 0xE000ED08)  returns 0x04 (0001ms, 260347ms total)
T1D7C 11917:709 JLINK_ReadMemEx(0x60002D14, 0x003C Bytes, ..., Flags = 0x02000000) -- CPU_ReadMem(60 bytes @ 0x60002D14) - Data: 72 B6 05 48 05 49 01 60 0A 68 82 F3 08 88 04 48 ...  returns 0x3C (0001ms, 260348ms total)
T1EBC 11918:412 JLINK_ReadMemEx(0x60002D14, 0x0002 Bytes, ..., Flags = 0x02000000) -- CPU_ReadMem(2 bytes @ 0x60002D14) - Data: 72 B6  returns 0x02 (0000ms, 260348ms total)
T1EBC 11918:412 JLINK_SetBPEx(Addr = 0x6000C45E, Type = 0xFFFFFFF2)  returns 0x00000003 (0000ms, 260348ms total)
T1EBC 11918:412 JLINK_Go() -- CPU_WriteMem(4 bytes @ 0xE0002000) -- CPU_ReadMem(4 bytes @ 0xE0001000) -- CPU_WriteMem(4 bytes @ 0xE0002008) -- CPU_WriteMem(4 bytes @ 0xE000200C) -- CPU_WriteMem(4 bytes @ 0xE0002010) -- CPU_WriteMem(4 bytes @ 0xE0002014) -- CPU_WriteMem(4 bytes @ 0xE0002018) -- CPU_WriteMem(4 bytes @ 0xE000201C) -- CPU_WriteMem(4 bytes @ 0xE0002020) -- CPU_WriteMem(4 bytes @ 0xE0002024) -- CPU_WriteMem(4 bytes @ 0xE0001004) (0004ms, 260352ms total)
T1EBC 11918:518 JLINK_IsHalted()  returns TRUE (0001ms, 260353ms total)
T1EBC 11918:519 JLINK_Halt()  returns 0x00 (0000ms, 260352ms total)
T1EBC 11918:519 JLINK_IsHalted()  returns TRUE (0000ms, 260352ms total)
T1EBC 11918:519 JLINK_IsHalted()  returns TRUE (0000ms, 260352ms total)
T1EBC 11918:519 JLINK_IsHalted()  returns TRUE (0000ms, 260352ms total)
T1EBC 11918:519 JLINK_ReadReg(R15 (PC))  returns 0x6000C45E (0000ms, 260352ms total)
T1EBC 11918:519 JLINK_ReadReg(XPSR)  returns 0x41000003 (0000ms, 260352ms total)
T1EBC 11918:519 JLINK_ClrBPEx(BPHandle = 0x00000003)  returns 0x00 (0000ms, 260352ms total)
T1EBC 11918:519 JLINK_ReadMemU32(0xE000ED30, 0x0001 Items, ...) -- CPU_ReadMem(4 bytes @ 0xE000ED30) - Data: 02 00 00 00  returns 0x01 (0001ms, 260353ms total)
T1EBC 11918:520 JLINK_ReadMemU32(0xE0001028, 0x0001 Items, ...) -- CPU_ReadMem(4 bytes @ 0xE0001028) - Data: 00 00 00 00  returns 0x01 (0000ms, 260353ms total)
T1EBC 11918:520 JLINK_ReadMemU32(0xE0001038, 0x0001 Items, ...) -- CPU_ReadMem(4 bytes @ 0xE0001038) - Data: 00 02 00 00  returns 0x01 (0000ms, 260353ms total)
T1EBC 11918:520 JLINK_ReadMemU32(0xE0001048, 0x0001 Items, ...) -- CPU_ReadMem(4 bytes @ 0xE0001048) - Data: 00 00 00 00  returns 0x01 (0001ms, 260354ms total)
T1EBC 11918:521 JLINK_ReadMemU32(0xE0001058, 0x0001 Items, ...) -- CPU_ReadMem(4 bytes @ 0xE0001058) - Data: 00 00 00 00  returns 0x01 (0000ms, 260354ms total)
T1EBC 11918:531 JLINK_ReadReg(R0)  returns 0x000001E0 (0000ms, 260354ms total)
T1EBC 11918:531 JLINK_ReadReg(R1)  returns 0x00000110 (0000ms, 260354ms total)
T1EBC 11918:531 JLINK_ReadReg(R2)  returns 0x81FFFF50 (0000ms, 260354ms total)
